
T232C 000:304 SEGGER J-Link V4.54a Log File (0002ms, 0306ms total)
T232C 000:304 DLL Compiled: Sep 17 2012 15:58:45 (0002ms, 0306ms total)
T232C 000:304 Logging started @ 2017-05-23 15:30 (0002ms, 0306ms total)
T232C 000:306 JLINK_SetWarnOutHandler(...) (0000ms, 0306ms total)
T232C 000:306 JLINK_OpenEx(...)
Firmware: J-Link ARM V8 compiled Nov 28 2014 13:44:46
Hardware: V8.00
S/N: 17935099
Feature(s): RDI,FlashDL,FlashBP,JFlash  returns O.K. (0033ms, 0339ms total)
T232C 000:339 JLINK_SetErrorOutHandler(...) (0000ms, 0339ms total)
T232C 000:339 JLINK_ExecCommand("ProjectFile = "F:\Workspace\keil_workspace\STM32F407\手机APP经蓝牙控制开发板例程代码\Project\JLinkSettings.ini"", ...)  returns 0x00 (0031ms, 0370ms total)
T232C 000:385 JLINK_ExecCommand("Device = STM32F407ZE", ...)
                JLINK_ExecCommand("map ram 0x20000000 - 0x2001FFFF", ...)  returns 0x00 (0000ms, 0000ms total)
                JLINK_AddMirrorAreaEx(Addr = 0x00000000, Size = 0x00000000) (0000ms, 0000ms total)
              Device "STM32F407ZE" selected (512 KB flash, 128 KB RAM).  returns 0x00 (0014ms, 0384ms total)
T232C 000:399 JLINK_ExecCommand("DisableConnectionTimeout", ...)  returns 0x00 (0000ms, 0384ms total)
T232C 000:399 JLINK_TIF_Select(JLINKARM_TIF_JTAG)  returns 0x00 (0000ms, 0384ms total)
T232C 000:399 JLINK_SetSpeed(5000) (0000ms, 0384ms total)
T232C 000:399 JLINK_GetHardwareVersion()  returns 0x13880 (0000ms, 0384ms total)
T232C 000:399 JLINK_GetDLLVersion()  returns 45401 (0000ms, 0384ms total)
T232C 000:399 JLINK_GetFirmwareString(...) (0000ms, 0384ms total)
T232C 000:425 JLINK_GetDLLVersion()  returns 45401 (0000ms, 0384ms total)
T232C 000:425 JLINK_GetCompileDateTime() (0000ms, 0384ms total)
T232C 000:437 JLINK_GetFirmwareString(...) (0000ms, 0384ms total)
T232C 000:450 JLINK_GetHardwareVersion()  returns 0x13880 (0000ms, 0384ms total)
T232C 000:499 JLINK_GetIdData(...) >0x2F8 JTAG>TotalIRLen = 9, IRPrint = 0x0011 >0x30 JTAG> >0x210 JTAG> >0x40 JTAG> >0x40 JTAG> >0x40 JTAG> >0x30 JTAG> >0x40 JTAG> >0x40 JTAG> >0x40 JTAG> >0x40 JTAG> >0x40 JTAG> >0x40 JTAG> >0x40 JTAG> >0x40 JTAG> >0x40 JTAG> >0x40 JTAG> >0x40 JTAG> >0x40 JTAG> >0x40 JTAG> >0x40 JTAG> >0x40 JTAG> >0x2F8 JTAG>TotalIRLen = 9, IRPrint = 0x0011 >0x30 JTAG> >0x210 JTAG> >0x80 JTAG> >0x40 JTAG> >0x40 JTAG> >0x50 JTAG> >0x40 JTAG> >0x40 JTAG> >0x40 JTAG> >0x50 JTAG>
 >0x40 JTAG> >0x40 JTAG> >0x40 JTAG> >0x30 JTAG> >0x40 JTAG> >0x50 JTAG> >0x40 JTAG> >0x38 JTAG> >0x80 JTAG> >0x40 JTAG> >0x40 JTAG> >0x50 JTAG> >0x40 JTAG> >0x40 JTAG> >0x40 JTAG> >0x50 JTAG> >0x40 JTAG> >0x40 JTAG> >0x30 JTAG> >0x40 JTAG> >0x40 JTAG> >0x40 JTAG> >0x40 JTAG> >0x40 JTAG> >0x50 JTAG> >0x40 JTAG> >0x80 JTAG> >0x40 JTAG> >0x30 JTAG> >0x40 JTAG> >0x40 JTAG> >0x40 JTAG> >0x40 JTAG> >0x40 JTAG> >0x50 JTAG> >0x40 JTAG> >0x80 JTAG> >0x40 JTAG> >0x30 JTAG> >0x40 JTAG> >0x50 JTAG> >0x40 JTAG>
 >0x40 JTAG> >0x40 JTAG> >0x30 JTAG> >0x40 JTAG> >0x50 JTAG> >0x40 JTAG>Found Cortex-M4 r0p1, Little endian. >0x50 JTAG> >0x50 JTAG> >0x40 JTAG> >0x40 JTAG> >0x30 JTAG> >0x30 JTAG> >0x50 JTAG> >0x40 JTAG> >0x80 JTAG> >0x40 JTAG> >0x30 JTAG> >0x40 JTAG> >0x50 JTAG> >0x40 JTAG> >0x40 JTAG> >0x40 JTAG> >0x30 JTAG> >0x30 JTAG> >0x50 JTAG> >0x40 JTAG> >0x80 JTAG> >0x40 JTAG> >0x30 JTAG> >0x40 JTAG> >0x50 JTAG> >0x40 JTAG>TPIU fitted. >0x40 JTAG> >0x40 JTAG> >0x30 JTAG> >0x40 JTAG> >0x50 JTAG> >0x40 JTAG>
ETM fitted. >0x40 JTAG> >0x40 JTAG> >0x30 JTAG> >0x40 JTAG> >0x50 JTAG> >0x40 JTAG> >0x40 JTAG> >0x40 JTAG> >0x30 JTAG> >0x40 JTAG> >0x50 JTAG> >0x40 JTAG>FPUnit: 6 code (BP) slots and 2 literal slots >0x40 JTAG> >0x40 JTAG> >0x30 JTAG> >0x40 JTAG> >0x50 JTAG> >0x40 JTAG> >0x40 JTAG> >0x40 JTAG> >0x30 JTAG> >0x30 JTAG> >0x50 JTAG> >0x40 JTAG> >0x80 JTAG> >0x40 JTAG> >0x30 JTAG> >0x40 JTAG> >0x50 JTAG> >0x40 JTAG> >0x40 JTAG> >0x40 JTAG> >0x30 JTAG> >0x30 JTAG> >0x50 JTAG> >0x40 JTAG> ScanLen=9
 NumDevices=2 aId[0]=0x4BA00477 aIrRead[0]=0 aScanLen[0]=0 aScanRead[0]=0 (0104ms, 0488ms total)
T232C 000:603 JLINK_JTAG_GetDeviceID(DeviceIndex = 0)  returns 0x4BA00477 (0000ms, 0488ms total)
T232C 000:603 JLINK_JTAG_GetDeviceInfo(DeviceIndex = 0)  returns 0x00 (0000ms, 0488ms total)
T232C 000:603 JLINK_JTAG_GetDeviceID(DeviceIndex = 1)  returns 0x6413041 (0000ms, 0488ms total)
T232C 000:603 JLINK_JTAG_GetDeviceInfo(DeviceIndex = 1)  returns 0x00 (0000ms, 0488ms total)
T232C 000:603 JLINK_GetDeviceFamily()  returns 14 (0000ms, 0488ms total)
T232C 000:608 JLINK_ReadMem (0xE00FFFF0, 0x0010 Bytes, ...) -- CPU is running -- CPU_ReadMem(16 bytes @ 0xE00FFFF0) -- Data:  0D 00 00 00 10 00 00 00 05 00 00 00 B1 00 00 00  returns 0x00 (0005ms, 0493ms total)
T232C 000:613 JLINK_ReadMem (0xE00FFFD0, 0x0020 Bytes, ...) -- CPU is running -- CPU_ReadMem(32 bytes @ 0xE00FFFD0) -- Data:  00 00 00 00 00 00 00 00 00 00 00 00 00 00 00 00 ...  returns 0x00 (0001ms, 0494ms total)
T232C 000:614 JLINK_ReadMem (0xE00FF000, 0x0018 Bytes, ...) -- CPU is running -- CPU_ReadMem(24 bytes @ 0xE00FF000) -- Data:  03 F0 F0 FF 03 20 F0 FF 03 30 F0 FF 03 10 F0 FF ...  returns 0x00 (0001ms, 0495ms total)
T232C 000:615 JLINK_ReadMemU32(0xE000ED00, 0x0001 Items, ...) -- CPU is running -- CPU_ReadMem(4 bytes @ 0xE000ED00) -- Data:  41 C2 0F 41  returns 0x01 (0000ms, 0495ms total)
T232C 000:615 JLINK_ReadMemU32(0xE000EF40, 0x0001 Items, ...) -- CPU is running -- CPU_ReadMem(4 bytes @ 0xE000EF40) -- Data:  21 00 11 10  returns 0x01 (0001ms, 0496ms total)
T232C 000:616 JLINK_ReadMemU32(0xE000EF44, 0x0001 Items, ...) -- CPU is running -- CPU_ReadMem(4 bytes @ 0xE000EF44) -- Data:  11 00 00 11  returns 0x01 (0001ms, 0497ms total)
T232C 000:617 JLINK_SetResetType(JLINKARM_RESET_TYPE_NORMAL)  returns JLINKARM_RESET_TYPE_NORMAL (0000ms, 0497ms total)
T232C 000:617 JLINK_Reset() >0x88 JTAG> >0x80 JTAG> >0x40 JTAG> >0x40 JTAG> >0x50 JTAG> >0x40 JTAG> >0x40 JTAG> >0x40 JTAG> >0x50 JTAG> >0x40 JTAG> >0x40 JTAG> >0x30 JTAG> >0x40 JTAG> >0x40 JTAG> >0x40 JTAG> >0x40 JTAG> >0x40 JTAG> >0x50 JTAG> >0x40 JTAG> >0x80 JTAG> >0x40 JTAG> >0x30 JTAG> >0x40 JTAG> >0x40 JTAG> >0x40 JTAG> >0x40 JTAG> >0x40 JTAG> >0x50 JTAG> >0x40 JTAG> >0x80 JTAG> >0x40 JTAG> >0x30 JTAG> >0x40 JTAG> >0x50 JTAG> >0x40 JTAG> >0x40 JTAG> >0x40 JTAG> >0x30 JTAG> >0x40 JTAG> >0x50 JTAG>
 >0x40 JTAG>Found Cortex-M4 r0p1, Little endian. >0x50 JTAG> >0x50 JTAG> >0x40 JTAG> >0x40 JTAG> >0x30 JTAG> >0x30 JTAG> >0x50 JTAG> >0x40 JTAG> >0x80 JTAG> >0x40 JTAG> >0x30 JTAG> >0x40 JTAG> >0x50 JTAG> >0x40 JTAG> >0x40 JTAG> >0x40 JTAG> >0x30 JTAG> >0x40 JTAG> >0x50 JTAG> >0x40 JTAG>TPIU fitted. >0x40 JTAG> >0x40 JTAG> >0x30 JTAG> >0x40 JTAG> >0x50 JTAG> >0x40 JTAG>ETM fitted. >0x40 JTAG> >0x40 JTAG> >0x30 JTAG> >0x40 JTAG> >0x50 JTAG> >0x40 JTAG> >0x40 JTAG> >0x40 JTAG> >0x30 JTAG> >0x40 JTAG>
 >0x50 JTAG> >0x40 JTAG>FPUnit: 6 code (BP) slots and 2 literal slots >0x40 JTAG> >0x40 JTAG> >0x30 JTAG> >0x40 JTAG> >0x50 JTAG> >0x40 JTAG> >0x40 JTAG> >0x40 JTAG> >0x30 JTAG> >0x40 JTAG> >0x50 JTAG> >0x40 JTAG> >0x40 JTAG> >0x40 JTAG> >0x30 JTAG> >0x30 JTAG> >0x50 JTAG> >0x40 JTAG> -- CPU is running -- CPU_WriteMem(4 bytes @ 0xE000EDF0) -- CPU is running -- CPU_WriteMem(4 bytes @ 0xE000EDFC) -- CPU is running -- CPU_WriteMem(4 bytes @ 0xE000ED0C) -- CPU is running -- CPU_ReadMem(4 bytes @ 0xE000EDF0)
 -- CPU is running -- CPU_ReadMem(4 bytes @ 0xE000EDF0) -- CPU is running -- CPU_WriteMem(4 bytes @ 0xE000EDF0) -- CPU is running -- CPU_WriteMem(4 bytes @ 0xE000EDFC) -- CPU is running -- CPU_ReadMem(4 bytes @ 0xE000EDF0) >0xD0 JTAG> >0x40 JTAG> >0x30 JTAG> >0x40 JTAG> >0x50 JTAG> >0x40 JTAG> -- CPU_WriteMem(4 bytes @ 0xE000EDFC) -- CPU_WriteMem(4 bytes @ 0xE0001028) -- CPU_WriteMem(4 bytes @ 0xE0001038) -- CPU_WriteMem(4 bytes @ 0xE0001048) -- CPU_WriteMem(4 bytes @ 0xE0001058)
 -- CPU_WriteMem(4 bytes @ 0xE0002000) (0085ms, 0582ms total)
T232C 000:702 JLINK_Halt()  returns 0x00 (0000ms, 0582ms total)
T232C 000:702 JLINK_IsHalted()  returns TRUE (0000ms, 0582ms total)
T232C 000:702 JLINK_ReadMemU32(0xE000EDF0, 0x0001 Items, ...) -- CPU_ReadMem(4 bytes @ 0xE000EDF0) -- Data:  03 00 03 00  returns 0x01 (0001ms, 0583ms total)
T232C 000:703 JLINK_WriteU32(0xE000EDF0, 0xA05F0003) -- CPU_WriteMem(4 bytes @ 0xE000EDF0)  returns 0x00 (0000ms, 0583ms total)
T232C 000:703 JLINK_WriteU32(0xE000EDFC, 0x01000000) -- CPU_WriteMem(4 bytes @ 0xE000EDFC)  returns 0x00 (0001ms, 0584ms total)
T232C 000:734 JLINK_GetHWStatus(...)  returns 0x00 (0001ms, 0585ms total)
T232C 000:760 JLINK_GetNumBPUnits(Type = 0xFFFFFF00)  returns 0x06 (0000ms, 0585ms total)
T232C 000:760 JLINK_GetNumBPUnits(Type = 0xF0)  returns 0x2000 (0000ms, 0585ms total)
T232C 000:760 JLINK_GetNumWPUnits()  returns 0x04 (0001ms, 0586ms total)
T232C 000:796 JLINK_GetSpeed()  returns 0x12C0 (0000ms, 0586ms total)
T232C 000:810 JLINK_ReadMemU32(0xE000E004, 0x0001 Items, ...) -- CPU_ReadMem(4 bytes @ 0xE000E004) -- Data:  02 00 00 00  returns 0x01 (0001ms, 0587ms total)
T232C 000:811 JLINK_ReadMemU32(0xE000E004, 0x0001 Items, ...) -- CPU_ReadMem(4 bytes @ 0xE000E004) -- Data:  02 00 00 00  returns 0x01 (0001ms, 0588ms total)
T232C 000:812 JLINK_WriteMem(0xE0001000, 0x001C Bytes, ...) -- Data:  01 00 00 00 00 00 00 00 00 00 00 00 00 00 00 00 ... -- CPU_WriteMem(28 bytes @ 0xE0001000)  returns 0x1C (0000ms, 0588ms total)
T232C 000:812 JLINK_ReadMem (0xE0001000, 0x001C Bytes, ...) -- CPU_ReadMem(28 bytes @ 0xE0001000) -- Data:  01 00 00 40 00 00 00 00 00 00 00 00 00 00 00 00 ...  returns 0x00 (0001ms, 0589ms total)
T232C 000:813 JLINK_Halt()  returns 0x00 (0000ms, 0589ms total)
T232C 000:813 JLINK_IsHalted()  returns TRUE (0000ms, 0589ms total)
T232C 000:824 JLINK_WriteMem(0x20000000, 0x0180 Bytes, ...) -- Data:  00 BE 0A E0 0D 78 2D 06 68 40 08 24 40 00 00 D3 ... -- CPU_WriteMem(384 bytes @ 0x20000000)  returns 0x180 (0004ms, 0593ms total)
T232C 000:828 JLINK_WriteReg(R0, 0x08000000)  returns 0x00 (0000ms, 0593ms total)
T232C 000:828 JLINK_WriteReg(R1, 0x00B71B00)  returns 0x00 (0000ms, 0593ms total)
T232C 000:828 JLINK_WriteReg(R2, 0x00000001)  returns 0x00 (0000ms, 0593ms total)
T232C 000:828 JLINK_WriteReg(R3, 0x00000000)  returns 0x00 (0000ms, 0593ms total)
T232C 000:828 JLINK_WriteReg(R4, 0x00000000)  returns 0x00 (0001ms, 0594ms total)
T232C 000:829 JLINK_WriteReg(R5, 0x00000000)  returns 0x00 (0000ms, 0594ms total)
T232C 000:829 JLINK_WriteReg(R6, 0x00000000)  returns 0x00 (0000ms, 0594ms total)
T232C 000:829 JLINK_WriteReg(R7, 0x00000000)  returns 0x00 (0000ms, 0594ms total)
T232C 000:829 JLINK_WriteReg(R8, 0x00000000)  returns 0x00 (0000ms, 0594ms total)
T232C 000:829 JLINK_WriteReg(R9, 0x2000017C)  returns 0x00 (0000ms, 0594ms total)
T232C 000:829 JLINK_WriteReg(R10, 0x00000000)  returns 0x00 (0000ms, 0594ms total)
T232C 000:829 JLINK_WriteReg(R11, 0x00000000)  returns 0x00 (0000ms, 0594ms total)
T232C 000:829 JLINK_WriteReg(R12, 0x00000000)  returns 0x00 (0000ms, 0594ms total)
T232C 000:829 JLINK_WriteReg(R13, 0x20001000)  returns 0x00 (0000ms, 0594ms total)
T232C 000:829 JLINK_WriteReg(R14, 0x20000001)  returns 0x00 (0000ms, 0594ms total)
T232C 000:829 JLINK_WriteReg(R15, 0x20000054)  returns 0x00 (0000ms, 0594ms total)
T232C 000:829 JLINK_WriteReg(XPSR, 0x01000000)  returns 0x00 (0000ms, 0594ms total)
T232C 000:829 JLINK_WriteReg(MSP, 0x20001000)  returns 0x00 (0000ms, 0594ms total)
T232C 000:829 JLINK_WriteReg(PSP, 0x20001000)  returns 0x00 (0000ms, 0594ms total)
T232C 000:829 JLINK_WriteReg(CFBP, 0x00000000)  returns 0x00 (0000ms, 0594ms total)
T232C 000:829 JLINK_SetBPEx(Addr = 0x20000000, Type = 0xFFFFFFF2) -- CPU_ReadMem(2 bytes @ 0x20000000)  returns 0x00000001 (0001ms, 0595ms total)
T232C 000:830 JLINK_Go() -- CPU_WriteMem(2 bytes @ 0x20000000) -- CPU_WriteMem(4 bytes @ 0xE0002008) -- CPU_WriteMem(4 bytes @ 0xE000200C) -- CPU_WriteMem(4 bytes @ 0xE0002010) -- CPU_WriteMem(4 bytes @ 0xE0002014) -- CPU_WriteMem(4 bytes @ 0xE0002018) -- CPU_WriteMem(4 bytes @ 0xE000201C) (0005ms, 0600ms total)
T232C 000:835 JLINK_IsHalted() -- CPU_ReadMem(2 bytes @ 0x20000000)  returns TRUE (0004ms, 0604ms total)
T232C 000:839 JLINK_ReadReg(R15)  returns 0x20000000 (0000ms, 0600ms total)
T232C 000:839 JLINK_ClrBPEx(BPHandle = 0x00000001)  returns 0x00 (0000ms, 0600ms total)
T232C 000:839 JLINK_ReadReg(R0)  returns 0x00000000 (0000ms, 0600ms total)
T232C 000:840 JLINK_WriteReg(R0, 0x08000000)  returns 0x00 (0000ms, 0600ms total)
T232C 000:840 JLINK_WriteReg(R1, 0x00004000)  returns 0x00 (0000ms, 0600ms total)
T232C 000:840 JLINK_WriteReg(R2, 0x000000FF)  returns 0x00 (0000ms, 0600ms total)
T232C 000:840 JLINK_WriteReg(R3, 0x00000000)  returns 0x00 (0000ms, 0600ms total)
T232C 000:840 JLINK_WriteReg(R4, 0x00000000)  returns 0x00 (0000ms, 0600ms total)
T232C 000:840 JLINK_WriteReg(R5, 0x00000000)  returns 0x00 (0000ms, 0600ms total)
T232C 000:840 JLINK_WriteReg(R6, 0x00000000)  returns 0x00 (0001ms, 0601ms total)
T232C 000:841 JLINK_WriteReg(R7, 0x00000000)  returns 0x00 (0000ms, 0601ms total)
T232C 000:841 JLINK_WriteReg(R8, 0x00000000)  returns 0x00 (0000ms, 0601ms total)
T232C 000:841 JLINK_WriteReg(R9, 0x2000017C)  returns 0x00 (0000ms, 0601ms total)
T232C 000:841 JLINK_WriteReg(R10, 0x00000000)  returns 0x00 (0000ms, 0601ms total)
T232C 000:841 JLINK_WriteReg(R11, 0x00000000)  returns 0x00 (0000ms, 0601ms total)
T232C 000:841 JLINK_WriteReg(R12, 0x00000000)  returns 0x00 (0000ms, 0601ms total)
T232C 000:841 JLINK_WriteReg(R13, 0x20001000)  returns 0x00 (0000ms, 0601ms total)
T232C 000:841 JLINK_WriteReg(R14, 0x20000001)  returns 0x00 (0000ms, 0601ms total)
T232C 000:841 JLINK_WriteReg(R15, 0x20000020)  returns 0x00 (0000ms, 0601ms total)
T232C 000:841 JLINK_WriteReg(XPSR, 0x01000000)  returns 0x00 (0000ms, 0601ms total)
T232C 000:841 JLINK_WriteReg(MSP, 0x20001000)  returns 0x00 (0000ms, 0601ms total)
T232C 000:841 JLINK_WriteReg(PSP, 0x20001000)  returns 0x00 (0000ms, 0601ms total)
T232C 000:841 JLINK_WriteReg(CFBP, 0x00000000)  returns 0x00 (0001ms, 0602ms total)
T232C 000:842 JLINK_SetBPEx(Addr = 0x20000000, Type = 0xFFFFFFF2)  returns 0x00000002 (0000ms, 0602ms total)
T232C 000:842 JLINK_Go() (0001ms, 0603ms total)
T232C 000:843 JLINK_IsHalted() -- CPU_ReadMem(2 bytes @ 0x20000000)  returns TRUE (0004ms, 0607ms total)
T232C 000:847 JLINK_ReadReg(R15)  returns 0x20000000 (0000ms, 0603ms total)
T232C 000:847 JLINK_ClrBPEx(BPHandle = 0x00000002)  returns 0x00 (0000ms, 0603ms total)
T232C 000:847 JLINK_ReadReg(R0)  returns 0x00000001 (0000ms, 0603ms total)
T232C 000:847 JLINK_WriteReg(R0, 0x08000000)  returns 0x00 (0000ms, 0603ms total)
T232C 000:847 JLINK_WriteReg(R1, 0x00004000)  returns 0x00 (0000ms, 0603ms total)
T232C 000:847 JLINK_WriteReg(R2, 0x000000FF)  returns 0x00 (0000ms, 0603ms total)
T232C 000:847 JLINK_WriteReg(R3, 0x00000000)  returns 0x00 (0000ms, 0603ms total)
T232C 000:847 JLINK_WriteReg(R4, 0x00000000)  returns 0x00 (0000ms, 0603ms total)
T232C 000:847 JLINK_WriteReg(R5, 0x00000000)  returns 0x00 (0001ms, 0604ms total)
T232C 000:848 JLINK_WriteReg(R6, 0x00000000)  returns 0x00 (0000ms, 0604ms total)
T232C 000:848 JLINK_WriteReg(R7, 0x00000000)  returns 0x00 (0000ms, 0604ms total)
T232C 000:848 JLINK_WriteReg(R8, 0x00000000)  returns 0x00 (0000ms, 0604ms total)
T232C 000:848 JLINK_WriteReg(R9, 0x2000017C)  returns 0x00 (0000ms, 0604ms total)
T232C 000:848 JLINK_WriteReg(R10, 0x00000000)  returns 0x00 (0000ms, 0604ms total)
T232C 000:848 JLINK_WriteReg(R11, 0x00000000)  returns 0x00 (0000ms, 0604ms total)
T232C 000:848 JLINK_WriteReg(R12, 0x00000000)  returns 0x00 (0000ms, 0604ms total)
T232C 000:848 JLINK_WriteReg(R13, 0x20001000)  returns 0x00 (0000ms, 0604ms total)
T232C 000:848 JLINK_WriteReg(R14, 0x20000001)  returns 0x00 (0000ms, 0604ms total)
T232C 000:848 JLINK_WriteReg(R15, 0x200000BC)  returns 0x00 (0000ms, 0604ms total)
T232C 000:848 JLINK_WriteReg(XPSR, 0x01000000)  returns 0x00 (0000ms, 0604ms total)
T232C 000:848 JLINK_WriteReg(MSP, 0x20001000)  returns 0x00 (0000ms, 0604ms total)
T232C 000:849 JLINK_WriteReg(PSP, 0x20001000)  returns 0x00 (0000ms, 0604ms total)
T232C 000:849 JLINK_WriteReg(CFBP, 0x00000000)  returns 0x00 (0000ms, 0604ms total)
T232C 000:849 JLINK_SetBPEx(Addr = 0x20000000, Type = 0xFFFFFFF2)  returns 0x00000003 (0000ms, 0604ms total)
T232C 000:849 JLINK_Go() (0001ms, 0605ms total)
T232C 000:850 JLINK_IsHalted()  returns FALSE (0001ms, 0606ms total)
T232C 000:902 JLINK_IsHalted()  returns FALSE (0000ms, 0605ms total)
T232C 000:953 JLINK_IsHalted()  returns FALSE (0000ms, 0605ms total)
T232C 001:004 JLINK_IsHalted()  returns FALSE (0001ms, 0606ms total)
T232C 001:056 JLINK_IsHalted()  returns FALSE (0000ms, 0605ms total)
T232C 001:107 JLINK_IsHalted()  returns FALSE (0000ms, 0605ms total)
T232C 001:158 JLINK_IsHalted()  returns FALSE (0000ms, 0605ms total)
T232C 001:209 JLINK_IsHalted() -- CPU_ReadMem(2 bytes @ 0x20000000)  returns TRUE (0003ms, 0608ms total)
T232C 001:212 JLINK_ReadReg(R15)  returns 0x20000000 (0000ms, 0605ms total)
T232C 001:212 JLINK_ClrBPEx(BPHandle = 0x00000003)  returns 0x00 (0000ms, 0605ms total)
T232C 001:212 JLINK_ReadReg(R0)  returns 0x00000000 (0000ms, 0605ms total)
T232C 001:214 JLINK_WriteReg(R0, 0x08004000)  returns 0x00 (0000ms, 0605ms total)
T232C 001:214 JLINK_WriteReg(R1, 0x00004000)  returns 0x00 (0000ms, 0605ms total)
T232C 001:214 JLINK_WriteReg(R2, 0x000000FF)  returns 0x00 (0000ms, 0605ms total)
T232C 001:214 JLINK_WriteReg(R3, 0x00000000)  returns 0x00 (0000ms, 0605ms total)
T232C 001:214 JLINK_WriteReg(R4, 0x00000000)  returns 0x00 (0000ms, 0605ms total)
T232C 001:214 JLINK_WriteReg(R5, 0x00000000)  returns 0x00 (0000ms, 0605ms total)
T232C 001:214 JLINK_WriteReg(R6, 0x00000000)  returns 0x00 (0000ms, 0605ms total)
T232C 001:214 JLINK_WriteReg(R7, 0x00000000)  returns 0x00 (0000ms, 0605ms total)
T232C 001:214 JLINK_WriteReg(R8, 0x00000000)  returns 0x00 (0000ms, 0605ms total)
T232C 001:214 JLINK_WriteReg(R9, 0x2000017C)  returns 0x00 (0000ms, 0605ms total)
T232C 001:214 JLINK_WriteReg(R10, 0x00000000)  returns 0x00 (0000ms, 0605ms total)
T232C 001:214 JLINK_WriteReg(R11, 0x00000000)  returns 0x00 (0000ms, 0605ms total)
T232C 001:214 JLINK_WriteReg(R12, 0x00000000)  returns 0x00 (0000ms, 0605ms total)
T232C 001:214 JLINK_WriteReg(R13, 0x20001000)  returns 0x00 (0000ms, 0605ms total)
T232C 001:215 JLINK_WriteReg(R14, 0x20000001)  returns 0x00 (0000ms, 0606ms total)
T232C 001:215 JLINK_WriteReg(R15, 0x20000020)  returns 0x00 (0000ms, 0606ms total)
T232C 001:215 JLINK_WriteReg(XPSR, 0x01000000)  returns 0x00 (0000ms, 0606ms total)
T232C 001:215 JLINK_WriteReg(MSP, 0x20001000)  returns 0x00 (0000ms, 0606ms total)
T232C 001:215 JLINK_WriteReg(PSP, 0x20001000)  returns 0x00 (0000ms, 0606ms total)
T232C 001:215 JLINK_WriteReg(CFBP, 0x00000000)  returns 0x00 (0000ms, 0606ms total)
T232C 001:215 JLINK_SetBPEx(Addr = 0x20000000, Type = 0xFFFFFFF2)  returns 0x00000004 (0000ms, 0606ms total)
T232C 001:215 JLINK_Go() (0001ms, 0607ms total)
T232C 001:216 JLINK_IsHalted() -- CPU_ReadMem(2 bytes @ 0x20000000)  returns TRUE (0004ms, 0611ms total)
T232C 001:220 JLINK_ReadReg(R15)  returns 0x20000000 (0000ms, 0607ms total)
T232C 001:220 JLINK_ClrBPEx(BPHandle = 0x00000004)  returns 0x00 (0000ms, 0607ms total)
T232C 001:220 JLINK_ReadReg(R0)  returns 0x00000001 (0000ms, 0607ms total)
T232C 001:220 JLINK_WriteReg(R0, 0x08004000)  returns 0x00 (0000ms, 0607ms total)
T232C 001:220 JLINK_WriteReg(R1, 0x00004000)  returns 0x00 (0000ms, 0607ms total)
T232C 001:220 JLINK_WriteReg(R2, 0x000000FF)  returns 0x00 (0000ms, 0607ms total)
T232C 001:220 JLINK_WriteReg(R3, 0x00000000)  returns 0x00 (0001ms, 0608ms total)
T232C 001:221 JLINK_WriteReg(R4, 0x00000000)  returns 0x00 (0000ms, 0608ms total)
T232C 001:221 JLINK_WriteReg(R5, 0x00000000)  returns 0x00 (0000ms, 0608ms total)
T232C 001:221 JLINK_WriteReg(R6, 0x00000000)  returns 0x00 (0000ms, 0608ms total)
T232C 001:221 JLINK_WriteReg(R7, 0x00000000)  returns 0x00 (0000ms, 0608ms total)
T232C 001:221 JLINK_WriteReg(R8, 0x00000000)  returns 0x00 (0000ms, 0608ms total)
T232C 001:221 JLINK_WriteReg(R9, 0x2000017C)  returns 0x00 (0000ms, 0608ms total)
T232C 001:221 JLINK_WriteReg(R10, 0x00000000)  returns 0x00 (0000ms, 0608ms total)
T232C 001:221 JLINK_WriteReg(R11, 0x00000000)  returns 0x00 (0000ms, 0608ms total)
T232C 001:221 JLINK_WriteReg(R12, 0x00000000)  returns 0x00 (0000ms, 0608ms total)
T232C 001:221 JLINK_WriteReg(R13, 0x20001000)  returns 0x00 (0000ms, 0608ms total)
T232C 001:221 JLINK_WriteReg(R14, 0x20000001)  returns 0x00 (0000ms, 0608ms total)
T232C 001:221 JLINK_WriteReg(R15, 0x200000BC)  returns 0x00 (0000ms, 0608ms total)
T232C 001:221 JLINK_WriteReg(XPSR, 0x01000000)  returns 0x00 (0000ms, 0608ms total)
T232C 001:221 JLINK_WriteReg(MSP, 0x20001000)  returns 0x00 (0000ms, 0608ms total)
T232C 001:221 JLINK_WriteReg(PSP, 0x20001000)  returns 0x00 (0001ms, 0609ms total)
T232C 001:222 JLINK_WriteReg(CFBP, 0x00000000)  returns 0x00 (0000ms, 0609ms total)
T232C 001:222 JLINK_SetBPEx(Addr = 0x20000000, Type = 0xFFFFFFF2)  returns 0x00000005 (0000ms, 0609ms total)
T232C 001:222 JLINK_Go() (0001ms, 0610ms total)
T232C 001:223 JLINK_IsHalted()  returns FALSE (0001ms, 0611ms total)
T232C 001:275 JLINK_IsHalted()  returns FALSE (0000ms, 0610ms total)
T232C 001:326 JLINK_IsHalted()  returns FALSE (0000ms, 0610ms total)
T232C 001:377 JLINK_IsHalted()  returns FALSE (0000ms, 0610ms total)
T232C 001:428 JLINK_IsHalted()  returns FALSE (0000ms, 0610ms total)
T232C 001:479 JLINK_IsHalted()  returns FALSE (0022ms, 0632ms total)
T232C 001:552 JLINK_IsHalted()  returns FALSE (0000ms, 0610ms total)
T232C 001:603 JLINK_IsHalted() -- CPU_ReadMem(2 bytes @ 0x20000000)  returns TRUE (0003ms, 0613ms total)
T232C 001:606 JLINK_ReadReg(R15)  returns 0x20000000 (0000ms, 0610ms total)
T232C 001:606 JLINK_ClrBPEx(BPHandle = 0x00000005)  returns 0x00 (0000ms, 0610ms total)
T232C 001:606 JLINK_ReadReg(R0)  returns 0x00000000 (0000ms, 0610ms total)
T232C 001:608 JLINK_WriteReg(R0, 0x08008000)  returns 0x00 (0000ms, 0610ms total)
T232C 001:608 JLINK_WriteReg(R1, 0x00004000)  returns 0x00 (0000ms, 0610ms total)
T232C 001:608 JLINK_WriteReg(R2, 0x000000FF)  returns 0x00 (0000ms, 0610ms total)
T232C 001:608 JLINK_WriteReg(R3, 0x00000000)  returns 0x00 (0000ms, 0610ms total)
T232C 001:608 JLINK_WriteReg(R4, 0x00000000)  returns 0x00 (0000ms, 0610ms total)
T232C 001:608 JLINK_WriteReg(R5, 0x00000000)  returns 0x00 (0000ms, 0610ms total)
T232C 001:608 JLINK_WriteReg(R6, 0x00000000)  returns 0x00 (0001ms, 0611ms total)
T232C 001:609 JLINK_WriteReg(R7, 0x00000000)  returns 0x00 (0000ms, 0611ms total)
T232C 001:609 JLINK_WriteReg(R8, 0x00000000)  returns 0x00 (0000ms, 0611ms total)
T232C 001:609 JLINK_WriteReg(R9, 0x2000017C)  returns 0x00 (0000ms, 0611ms total)
T232C 001:609 JLINK_WriteReg(R10, 0x00000000)  returns 0x00 (0000ms, 0611ms total)
T232C 001:609 JLINK_WriteReg(R11, 0x00000000)  returns 0x00 (0000ms, 0611ms total)
T232C 001:609 JLINK_WriteReg(R12, 0x00000000)  returns 0x00 (0000ms, 0611ms total)
T232C 001:609 JLINK_WriteReg(R13, 0x20001000)  returns 0x00 (0000ms, 0611ms total)
T232C 001:609 JLINK_WriteReg(R14, 0x20000001)  returns 0x00 (0000ms, 0611ms total)
T232C 001:609 JLINK_WriteReg(R15, 0x20000020)  returns 0x00 (0000ms, 0611ms total)
T232C 001:609 JLINK_WriteReg(XPSR, 0x01000000)  returns 0x00 (0000ms, 0611ms total)
T232C 001:609 JLINK_WriteReg(MSP, 0x20001000)  returns 0x00 (0000ms, 0611ms total)
T232C 001:609 JLINK_WriteReg(PSP, 0x20001000)  returns 0x00 (0001ms, 0612ms total)
T232C 001:610 JLINK_WriteReg(CFBP, 0x00000000)  returns 0x00 (0000ms, 0612ms total)
T232C 001:610 JLINK_SetBPEx(Addr = 0x20000000, Type = 0xFFFFFFF2)  returns 0x00000006 (0000ms, 0612ms total)
T232C 001:610 JLINK_Go() (0001ms, 0613ms total)
T232C 001:611 JLINK_IsHalted() -- CPU_ReadMem(2 bytes @ 0x20000000)  returns TRUE (0004ms, 0617ms total)
T232C 001:615 JLINK_ReadReg(R15)  returns 0x20000000 (0000ms, 0613ms total)
T232C 001:615 JLINK_ClrBPEx(BPHandle = 0x00000006)  returns 0x00 (0000ms, 0613ms total)
T232C 001:615 JLINK_ReadReg(R0)  returns 0x00000001 (0000ms, 0613ms total)
T232C 001:615 JLINK_WriteReg(R0, 0x08008000)  returns 0x00 (0000ms, 0613ms total)
T232C 001:615 JLINK_WriteReg(R1, 0x00004000)  returns 0x00 (0000ms, 0613ms total)
T232C 001:615 JLINK_WriteReg(R2, 0x000000FF)  returns 0x00 (0000ms, 0613ms total)
T232C 001:615 JLINK_WriteReg(R3, 0x00000000)  returns 0x00 (0000ms, 0613ms total)
T232C 001:615 JLINK_WriteReg(R4, 0x00000000)  returns 0x00 (0000ms, 0613ms total)
T232C 001:615 JLINK_WriteReg(R5, 0x00000000)  returns 0x00 (0000ms, 0613ms total)
T232C 001:615 JLINK_WriteReg(R6, 0x00000000)  returns 0x00 (0000ms, 0613ms total)
T232C 001:615 JLINK_WriteReg(R7, 0x00000000)  returns 0x00 (0000ms, 0613ms total)
T232C 001:615 JLINK_WriteReg(R8, 0x00000000)  returns 0x00 (0001ms, 0614ms total)
T232C 001:616 JLINK_WriteReg(R9, 0x2000017C)  returns 0x00 (0000ms, 0614ms total)
T232C 001:616 JLINK_WriteReg(R10, 0x00000000)  returns 0x00 (0000ms, 0614ms total)
T232C 001:616 JLINK_WriteReg(R11, 0x00000000)  returns 0x00 (0000ms, 0614ms total)
T232C 001:616 JLINK_WriteReg(R12, 0x00000000)  returns 0x00 (0000ms, 0614ms total)
T232C 001:616 JLINK_WriteReg(R13, 0x20001000)  returns 0x00 (0000ms, 0614ms total)
T232C 001:616 JLINK_WriteReg(R14, 0x20000001)  returns 0x00 (0000ms, 0614ms total)
T232C 001:616 JLINK_WriteReg(R15, 0x200000BC)  returns 0x00 (0000ms, 0614ms total)
T232C 001:616 JLINK_WriteReg(XPSR, 0x01000000)  returns 0x00 (0000ms, 0614ms total)
T232C 001:616 JLINK_WriteReg(MSP, 0x20001000)  returns 0x00 (0000ms, 0614ms total)
T232C 001:616 JLINK_WriteReg(PSP, 0x20001000)  returns 0x00 (0000ms, 0614ms total)
T232C 001:616 JLINK_WriteReg(CFBP, 0x00000000)  returns 0x00 (0000ms, 0614ms total)
T232C 001:616 JLINK_SetBPEx(Addr = 0x20000000, Type = 0xFFFFFFF2)  returns 0x00000007 (0000ms, 0614ms total)
T232C 001:616 JLINK_Go() (0002ms, 0616ms total)
T232C 001:618 JLINK_IsHalted()  returns FALSE (0000ms, 0616ms total)
T232C 001:669 JLINK_IsHalted()  returns FALSE (0000ms, 0616ms total)
T232C 001:720 JLINK_IsHalted()  returns FALSE (0000ms, 0616ms total)
T232C 001:771 JLINK_IsHalted()  returns FALSE (0000ms, 0616ms total)
T232C 001:822 JLINK_IsHalted()  returns FALSE (0000ms, 0616ms total)
T232C 001:873 JLINK_IsHalted()  returns FALSE (0000ms, 0616ms total)
T232C 001:924 JLINK_IsHalted()  returns FALSE (0000ms, 0616ms total)
T232C 001:975 JLINK_IsHalted() -- CPU_ReadMem(2 bytes @ 0x20000000)  returns TRUE (0003ms, 0619ms total)
T232C 001:978 JLINK_ReadReg(R15)  returns 0x20000000 (0000ms, 0616ms total)
T232C 001:978 JLINK_ClrBPEx(BPHandle = 0x00000007)  returns 0x00 (0000ms, 0616ms total)
T232C 001:978 JLINK_ReadReg(R0)  returns 0x00000000 (0000ms, 0616ms total)
T232C 001:979 JLINK_WriteReg(R0, 0x0800C000)  returns 0x00 (0000ms, 0616ms total)
T232C 001:979 JLINK_WriteReg(R1, 0x00004000)  returns 0x00 (0001ms, 0617ms total)
T232C 001:980 JLINK_WriteReg(R2, 0x000000FF)  returns 0x00 (0000ms, 0617ms total)
T232C 001:980 JLINK_WriteReg(R3, 0x00000000)  returns 0x00 (0000ms, 0617ms total)
T232C 001:980 JLINK_WriteReg(R4, 0x00000000)  returns 0x00 (0000ms, 0617ms total)
T232C 001:980 JLINK_WriteReg(R5, 0x00000000)  returns 0x00 (0000ms, 0617ms total)
T232C 001:980 JLINK_WriteReg(R6, 0x00000000)  returns 0x00 (0000ms, 0617ms total)
T232C 001:980 JLINK_WriteReg(R7, 0x00000000)  returns 0x00 (0000ms, 0617ms total)
T232C 001:980 JLINK_WriteReg(R8, 0x00000000)  returns 0x00 (0000ms, 0617ms total)
T232C 001:980 JLINK_WriteReg(R9, 0x2000017C)  returns 0x00 (0000ms, 0617ms total)
T232C 001:980 JLINK_WriteReg(R10, 0x00000000)  returns 0x00 (0000ms, 0617ms total)
T232C 001:980 JLINK_WriteReg(R11, 0x00000000)  returns 0x00 (0000ms, 0617ms total)
T232C 001:980 JLINK_WriteReg(R12, 0x00000000)  returns 0x00 (0000ms, 0617ms total)
T232C 001:980 JLINK_WriteReg(R13, 0x20001000)  returns 0x00 (0000ms, 0617ms total)
T232C 001:980 JLINK_WriteReg(R14, 0x20000001)  returns 0x00 (0000ms, 0617ms total)
T232C 001:980 JLINK_WriteReg(R15, 0x20000020)  returns 0x00 (0000ms, 0617ms total)
T232C 001:980 JLINK_WriteReg(XPSR, 0x01000000)  returns 0x00 (0000ms, 0617ms total)
T232C 001:981 JLINK_WriteReg(MSP, 0x20001000)  returns 0x00 (0000ms, 0618ms total)
T232C 001:981 JLINK_WriteReg(PSP, 0x20001000)  returns 0x00 (0000ms, 0618ms total)
T232C 001:981 JLINK_WriteReg(CFBP, 0x00000000)  returns 0x00 (0000ms, 0618ms total)
T232C 001:981 JLINK_SetBPEx(Addr = 0x20000000, Type = 0xFFFFFFF2)  returns 0x00000008 (0000ms, 0618ms total)
T232C 001:981 JLINK_Go() (0001ms, 0619ms total)
T232C 001:982 JLINK_IsHalted() -- CPU_ReadMem(2 bytes @ 0x20000000)  returns TRUE (0004ms, 0623ms total)
T232C 001:986 JLINK_ReadReg(R15)  returns 0x20000000 (0000ms, 0619ms total)
T232C 001:986 JLINK_ClrBPEx(BPHandle = 0x00000008)  returns 0x00 (0000ms, 0619ms total)
T232C 001:986 JLINK_ReadReg(R0)  returns 0x00000001 (0000ms, 0619ms total)
T232C 001:986 JLINK_WriteReg(R0, 0x0800C000)  returns 0x00 (0000ms, 0619ms total)
T232C 001:986 JLINK_WriteReg(R1, 0x00004000)  returns 0x00 (0000ms, 0619ms total)
T232C 001:986 JLINK_WriteReg(R2, 0x000000FF)  returns 0x00 (0000ms, 0619ms total)
T232C 001:986 JLINK_WriteReg(R3, 0x00000000)  returns 0x00 (0000ms, 0619ms total)
T232C 001:986 JLINK_WriteReg(R4, 0x00000000)  returns 0x00 (0000ms, 0619ms total)
T232C 001:986 JLINK_WriteReg(R5, 0x00000000)  returns 0x00 (0000ms, 0619ms total)
T232C 001:986 JLINK_WriteReg(R6, 0x00000000)  returns 0x00 (0000ms, 0619ms total)
T232C 001:986 JLINK_WriteReg(R7, 0x00000000)  returns 0x00 (0001ms, 0620ms total)
T232C 001:987 JLINK_WriteReg(R8, 0x00000000)  returns 0x00 (0000ms, 0620ms total)
T232C 001:987 JLINK_WriteReg(R9, 0x2000017C)  returns 0x00 (0000ms, 0620ms total)
T232C 001:987 JLINK_WriteReg(R10, 0x00000000)  returns 0x00 (0000ms, 0620ms total)
T232C 001:987 JLINK_WriteReg(R11, 0x00000000)  returns 0x00 (0000ms, 0620ms total)
T232C 001:987 JLINK_WriteReg(R12, 0x00000000)  returns 0x00 (0000ms, 0620ms total)
T232C 001:987 JLINK_WriteReg(R13, 0x20001000)  returns 0x00 (0000ms, 0620ms total)
T232C 001:987 JLINK_WriteReg(R14, 0x20000001)  returns 0x00 (0000ms, 0620ms total)
T232C 001:987 JLINK_WriteReg(R15, 0x200000BC)  returns 0x00 (0000ms, 0620ms total)
T232C 001:987 JLINK_WriteReg(XPSR, 0x01000000)  returns 0x00 (0000ms, 0620ms total)
T232C 001:987 JLINK_WriteReg(MSP, 0x20001000)  returns 0x00 (0000ms, 0620ms total)
T232C 001:987 JLINK_WriteReg(PSP, 0x20001000)  returns 0x00 (0000ms, 0620ms total)
T232C 001:987 JLINK_WriteReg(CFBP, 0x00000000)  returns 0x00 (0000ms, 0620ms total)
T232C 001:987 JLINK_SetBPEx(Addr = 0x20000000, Type = 0xFFFFFFF2)  returns 0x00000009 (0000ms, 0620ms total)
T232C 001:987 JLINK_Go() (0002ms, 0622ms total)
T232C 001:989 JLINK_IsHalted()  returns FALSE (0000ms, 0622ms total)
T232C 002:040 JLINK_IsHalted()  returns FALSE (0000ms, 0622ms total)
T232C 002:091 JLINK_IsHalted()  returns FALSE (0000ms, 0622ms total)
T232C 002:142 JLINK_IsHalted()  returns FALSE (0000ms, 0622ms total)
T232C 002:193 JLINK_IsHalted()  returns FALSE (0000ms, 0622ms total)
T232C 002:244 JLINK_IsHalted()  returns FALSE (0000ms, 0622ms total)
T232C 002:295 JLINK_IsHalted()  returns FALSE (0000ms, 0622ms total)
T232C 002:346 JLINK_IsHalted() -- CPU_ReadMem(2 bytes @ 0x20000000)  returns TRUE (0003ms, 0625ms total)
T232C 002:349 JLINK_ReadReg(R15)  returns 0x20000000 (0000ms, 0622ms total)
T232C 002:349 JLINK_ClrBPEx(BPHandle = 0x00000009)  returns 0x00 (0000ms, 0622ms total)
T232C 002:349 JLINK_ReadReg(R0)  returns 0x00000000 (0000ms, 0622ms total)
T232C 002:351 JLINK_WriteReg(R0, 0x08010000)  returns 0x00 (0000ms, 0622ms total)
T232C 002:351 JLINK_WriteReg(R1, 0x00010000)  returns 0x00 (0000ms, 0622ms total)
T232C 002:351 JLINK_WriteReg(R2, 0x000000FF)  returns 0x00 (0000ms, 0622ms total)
T232C 002:351 JLINK_WriteReg(R3, 0x00000000)  returns 0x00 (0000ms, 0622ms total)
T232C 002:351 JLINK_WriteReg(R4, 0x00000000)  returns 0x00 (0001ms, 0623ms total)
T232C 002:352 JLINK_WriteReg(R5, 0x00000000)  returns 0x00 (0000ms, 0623ms total)
T232C 002:352 JLINK_WriteReg(R6, 0x00000000)  returns 0x00 (0000ms, 0623ms total)
T232C 002:352 JLINK_WriteReg(R7, 0x00000000)  returns 0x00 (0000ms, 0623ms total)
T232C 002:352 JLINK_WriteReg(R8, 0x00000000)  returns 0x00 (0000ms, 0623ms total)
T232C 002:352 JLINK_WriteReg(R9, 0x2000017C)  returns 0x00 (0000ms, 0623ms total)
T232C 002:352 JLINK_WriteReg(R10, 0x00000000)  returns 0x00 (0000ms, 0623ms total)
T232C 002:352 JLINK_WriteReg(R11, 0x00000000)  returns 0x00 (0000ms, 0623ms total)
T232C 002:352 JLINK_WriteReg(R12, 0x00000000)  returns 0x00 (0000ms, 0623ms total)
T232C 002:352 JLINK_WriteReg(R13, 0x20001000)  returns 0x00 (0001ms, 0624ms total)
T232C 002:353 JLINK_WriteReg(R14, 0x20000001)  returns 0x00 (0000ms, 0624ms total)
T232C 002:353 JLINK_WriteReg(R15, 0x20000020)  returns 0x00 (0000ms, 0624ms total)
T232C 002:353 JLINK_WriteReg(XPSR, 0x01000000)  returns 0x00 (0000ms, 0624ms total)
T232C 002:353 JLINK_WriteReg(MSP, 0x20001000)  returns 0x00 (0000ms, 0624ms total)
T232C 002:353 JLINK_WriteReg(PSP, 0x20001000)  returns 0x00 (0000ms, 0624ms total)
T232C 002:353 JLINK_WriteReg(CFBP, 0x00000000)  returns 0x00 (0000ms, 0624ms total)
T232C 002:353 JLINK_SetBPEx(Addr = 0x20000000, Type = 0xFFFFFFF2)  returns 0x0000000A (0000ms, 0624ms total)
T232C 002:353 JLINK_Go() (0002ms, 0626ms total)
T232C 002:355 JLINK_IsHalted()  returns FALSE (0000ms, 0626ms total)
T232C 002:406 JLINK_IsHalted()  returns FALSE (0000ms, 0626ms total)
T232C 002:457 JLINK_IsHalted() -- CPU_ReadMem(2 bytes @ 0x20000000)  returns TRUE (0003ms, 0629ms total)
T232C 002:460 JLINK_ReadReg(R15)  returns 0x20000000 (0000ms, 0626ms total)
T232C 002:460 JLINK_ClrBPEx(BPHandle = 0x0000000A)  returns 0x00 (0000ms, 0626ms total)
T232C 002:460 JLINK_ReadReg(R0)  returns 0x00000000 (0000ms, 0626ms total)
T232C 002:463 JLINK_WriteReg(R0, 0x00000001)  returns 0x00 (0000ms, 0626ms total)
T232C 002:463 JLINK_WriteReg(R1, 0x00010000)  returns 0x00 (0000ms, 0626ms total)
T232C 002:463 JLINK_WriteReg(R2, 0x000000FF)  returns 0x00 (0000ms, 0626ms total)
T232C 002:463 JLINK_WriteReg(R3, 0x00000000)  returns 0x00 (0000ms, 0626ms total)
T232C 002:463 JLINK_WriteReg(R4, 0x00000000)  returns 0x00 (0000ms, 0626ms total)
T232C 002:463 JLINK_WriteReg(R5, 0x00000000)  returns 0x00 (0000ms, 0626ms total)
T232C 002:463 JLINK_WriteReg(R6, 0x00000000)  returns 0x00 (0000ms, 0626ms total)
T232C 002:463 JLINK_WriteReg(R7, 0x00000000)  returns 0x00 (0000ms, 0626ms total)
T232C 002:463 JLINK_WriteReg(R8, 0x00000000)  returns 0x00 (0000ms, 0626ms total)
T232C 002:463 JLINK_WriteReg(R9, 0x2000017C)  returns 0x00 (0000ms, 0626ms total)
T232C 002:463 JLINK_WriteReg(R10, 0x00000000)  returns 0x00 (0001ms, 0627ms total)
T232C 002:464 JLINK_WriteReg(R11, 0x00000000)  returns 0x00 (0000ms, 0627ms total)
T232C 002:464 JLINK_WriteReg(R12, 0x00000000)  returns 0x00 (0000ms, 0627ms total)
T232C 002:464 JLINK_WriteReg(R13, 0x20001000)  returns 0x00 (0000ms, 0627ms total)
T232C 002:464 JLINK_WriteReg(R14, 0x20000001)  returns 0x00 (0000ms, 0627ms total)
T232C 002:464 JLINK_WriteReg(R15, 0x20000082)  returns 0x00 (0000ms, 0627ms total)
T232C 002:464 JLINK_WriteReg(XPSR, 0x01000000)  returns 0x00 (0000ms, 0627ms total)
T232C 002:464 JLINK_WriteReg(MSP, 0x20001000)  returns 0x00 (0000ms, 0627ms total)
T232C 002:464 JLINK_WriteReg(PSP, 0x20001000)  returns 0x00 (0000ms, 0627ms total)
T232C 002:464 JLINK_WriteReg(CFBP, 0x00000000)  returns 0x00 (0000ms, 0627ms total)
T232C 002:464 JLINK_SetBPEx(Addr = 0x20000000, Type = 0xFFFFFFF2)  returns 0x0000000B (0000ms, 0627ms total)
T232C 002:464 JLINK_Go() (0002ms, 0629ms total)
T232C 002:466 JLINK_IsHalted() -- CPU_ReadMem(2 bytes @ 0x20000000)  returns TRUE (0003ms, 0632ms total)
T232C 002:469 JLINK_ReadReg(R15)  returns 0x20000000 (0000ms, 0629ms total)
T232C 002:469 JLINK_ClrBPEx(BPHandle = 0x0000000B)  returns 0x00 (0000ms, 0629ms total)
T232C 002:469 JLINK_ReadReg(R0)  returns 0x00000000 (0000ms, 0629ms total)
T232C 002:533 JLINK_WriteMem(0x20000000, 0x0180 Bytes, ...) -- Data:  00 BE 0A E0 0D 78 2D 06 68 40 08 24 40 00 00 D3 ... -- CPU_WriteMem(384 bytes @ 0x20000000)  returns 0x180 (0004ms, 0633ms total)
T232C 002:537 JLINK_WriteReg(R0, 0x08000000)  returns 0x00 (0000ms, 0633ms total)
T232C 002:537 JLINK_WriteReg(R1, 0x00B71B00)  returns 0x00 (0000ms, 0633ms total)
T232C 002:537 JLINK_WriteReg(R2, 0x00000002)  returns 0x00 (0000ms, 0633ms total)
T232C 002:537 JLINK_WriteReg(R3, 0x00000000)  returns 0x00 (0000ms, 0633ms total)
T232C 002:537 JLINK_WriteReg(R4, 0x00000000)  returns 0x00 (0000ms, 0633ms total)
T232C 002:537 JLINK_WriteReg(R5, 0x00000000)  returns 0x00 (0000ms, 0633ms total)
T232C 002:537 JLINK_WriteReg(R6, 0x00000000)  returns 0x00 (0000ms, 0633ms total)
T232C 002:538 JLINK_WriteReg(R7, 0x00000000)  returns 0x00 (0000ms, 0634ms total)
T232C 002:538 JLINK_WriteReg(R8, 0x00000000)  returns 0x00 (0000ms, 0634ms total)
T232C 002:538 JLINK_WriteReg(R9, 0x2000017C)  returns 0x00 (0000ms, 0634ms total)
T232C 002:538 JLINK_WriteReg(R10, 0x00000000)  returns 0x00 (0000ms, 0634ms total)
T232C 002:538 JLINK_WriteReg(R11, 0x00000000)  returns 0x00 (0000ms, 0634ms total)
T232C 002:538 JLINK_WriteReg(R12, 0x00000000)  returns 0x00 (0000ms, 0634ms total)
T232C 002:538 JLINK_WriteReg(R13, 0x20001000)  returns 0x00 (0000ms, 0634ms total)
T232C 002:538 JLINK_WriteReg(R14, 0x20000001)  returns 0x00 (0000ms, 0634ms total)
T232C 002:538 JLINK_WriteReg(R15, 0x20000054)  returns 0x00 (0000ms, 0634ms total)
T232C 002:538 JLINK_WriteReg(XPSR, 0x01000000)  returns 0x00 (0000ms, 0634ms total)
T232C 002:538 JLINK_WriteReg(MSP, 0x20001000)  returns 0x00 (0000ms, 0634ms total)
T232C 002:538 JLINK_WriteReg(PSP, 0x20001000)  returns 0x00 (0000ms, 0634ms total)
T232C 002:538 JLINK_WriteReg(CFBP, 0x00000000)  returns 0x00 (0000ms, 0634ms total)
T232C 002:538 JLINK_SetBPEx(Addr = 0x20000000, Type = 0xFFFFFFF2) -- CPU_ReadMem(2 bytes @ 0x20000000)  returns 0x0000000C (0001ms, 0635ms total)
T232C 002:539 JLINK_Go() -- CPU_WriteMem(2 bytes @ 0x20000000) (0002ms, 0637ms total)
T232C 002:541 JLINK_IsHalted() -- CPU_ReadMem(2 bytes @ 0x20000000)  returns TRUE (0003ms, 0640ms total)
T232C 002:544 JLINK_ReadReg(R15)  returns 0x20000000 (0000ms, 0637ms total)
T232C 002:545 JLINK_ClrBPEx(BPHandle = 0x0000000C)  returns 0x00 (0000ms, 0638ms total)
T232C 002:545 JLINK_ReadReg(R0)  returns 0x00000000 (0000ms, 0638ms total)
T232C 002:546 JLINK_WriteMem(0x20000180, 0x0400 Bytes, ...) -- Data:  90 D1 01 20 89 05 00 08 6D 05 00 08 6F 05 00 08 ... -- CPU_WriteMem(1024 bytes @ 0x20000180)  returns 0x400 (0009ms, 0647ms total)
T232C 002:555 JLINK_WriteReg(R0, 0x08000000)  returns 0x00 (0000ms, 0647ms total)
T232C 002:555 JLINK_WriteReg(R1, 0x00000400)  returns 0x00 (0000ms, 0647ms total)
T232C 002:555 JLINK_WriteReg(R2, 0x20000180)  returns 0x00 (0000ms, 0647ms total)
T232C 002:555 JLINK_WriteReg(R3, 0x00000000)  returns 0x00 (0000ms, 0647ms total)
T232C 002:555 JLINK_WriteReg(R4, 0x00000000)  returns 0x00 (0000ms, 0647ms total)
T232C 002:555 JLINK_WriteReg(R5, 0x00000000)  returns 0x00 (0000ms, 0647ms total)
T232C 002:555 JLINK_WriteReg(R6, 0x00000000)  returns 0x00 (0000ms, 0647ms total)
T232C 002:555 JLINK_WriteReg(R7, 0x00000000)  returns 0x00 (0000ms, 0647ms total)
T232C 002:555 JLINK_WriteReg(R8, 0x00000000)  returns 0x00 (0000ms, 0647ms total)
T232C 002:555 JLINK_WriteReg(R9, 0x2000017C)  returns 0x00 (0000ms, 0647ms total)
T232C 002:555 JLINK_WriteReg(R10, 0x00000000)  returns 0x00 (0000ms, 0647ms total)
T232C 002:555 JLINK_WriteReg(R11, 0x00000000)  returns 0x00 (0000ms, 0647ms total)
T232C 002:555 JLINK_WriteReg(R12, 0x00000000)  returns 0x00 (0000ms, 0647ms total)
T232C 002:555 JLINK_WriteReg(R13, 0x20001000)  returns 0x00 (0000ms, 0647ms total)
T232C 002:555 JLINK_WriteReg(R14, 0x20000001)  returns 0x00 (0000ms, 0647ms total)
T232C 002:555 JLINK_WriteReg(R15, 0x20000108)  returns 0x00 (0001ms, 0648ms total)
T232C 002:556 JLINK_WriteReg(XPSR, 0x01000000)  returns 0x00 (0000ms, 0648ms total)
T232C 002:556 JLINK_WriteReg(MSP, 0x20001000)  returns 0x00 (0000ms, 0648ms total)
T232C 002:556 JLINK_WriteReg(PSP, 0x20001000)  returns 0x00 (0000ms, 0648ms total)
T232C 002:556 JLINK_WriteReg(CFBP, 0x00000000)  returns 0x00 (0000ms, 0648ms total)
T232C 002:556 JLINK_SetBPEx(Addr = 0x20000000, Type = 0xFFFFFFF2)  returns 0x0000000D (0000ms, 0648ms total)
T232C 002:556 JLINK_Go() (0001ms, 0649ms total)
T232C 002:557 JLINK_IsHalted()  returns FALSE (0001ms, 0650ms total)
T232C 002:609 JLINK_IsHalted() -- CPU_ReadMem(2 bytes @ 0x20000000)  returns TRUE (0003ms, 0652ms total)
T232C 002:612 JLINK_ReadReg(R15)  returns 0x20000000 (0000ms, 0649ms total)
T232C 002:612 JLINK_ClrBPEx(BPHandle = 0x0000000D)  returns 0x00 (0000ms, 0649ms total)
T232C 002:612 JLINK_ReadReg(R0)  returns 0x00000000 (0000ms, 0649ms total)
T232C 002:613 JLINK_WriteMem(0x20000180, 0x0400 Bytes, ...) -- Data:  03 F0 B0 FE 04 F0 0D F8 06 F0 F6 FD 0A E0 00 20 ... -- CPU_WriteMem(1024 bytes @ 0x20000180)  returns 0x400 (0009ms, 0658ms total)
T232C 002:622 JLINK_WriteReg(R0, 0x08000400)  returns 0x00 (0000ms, 0658ms total)
T232C 002:622 JLINK_WriteReg(R1, 0x00000400)  returns 0x00 (0000ms, 0658ms total)
T232C 002:622 JLINK_WriteReg(R2, 0x20000180)  returns 0x00 (0000ms, 0658ms total)
T232C 002:622 JLINK_WriteReg(R3, 0x00000000)  returns 0x00 (0000ms, 0658ms total)
T232C 002:622 JLINK_WriteReg(R4, 0x00000000)  returns 0x00 (0000ms, 0658ms total)
T232C 002:622 JLINK_WriteReg(R5, 0x00000000)  returns 0x00 (0000ms, 0658ms total)
T232C 002:622 JLINK_WriteReg(R6, 0x00000000)  returns 0x00 (0000ms, 0658ms total)
T232C 002:622 JLINK_WriteReg(R7, 0x00000000)  returns 0x00 (0000ms, 0658ms total)
T232C 002:622 JLINK_WriteReg(R8, 0x00000000)  returns 0x00 (0000ms, 0658ms total)
T232C 002:622 JLINK_WriteReg(R9, 0x2000017C)  returns 0x00 (0001ms, 0659ms total)
T232C 002:623 JLINK_WriteReg(R10, 0x00000000)  returns 0x00 (0000ms, 0659ms total)
T232C 002:623 JLINK_WriteReg(R11, 0x00000000)  returns 0x00 (0000ms, 0659ms total)
T232C 002:623 JLINK_WriteReg(R12, 0x00000000)  returns 0x00 (0000ms, 0659ms total)
T232C 002:623 JLINK_WriteReg(R13, 0x20001000)  returns 0x00 (0000ms, 0659ms total)
T232C 002:623 JLINK_WriteReg(R14, 0x20000001)  returns 0x00 (0000ms, 0659ms total)
T232C 002:623 JLINK_WriteReg(R15, 0x20000108)  returns 0x00 (0000ms, 0659ms total)
T232C 002:623 JLINK_WriteReg(XPSR, 0x01000000)  returns 0x00 (0000ms, 0659ms total)
T232C 002:623 JLINK_WriteReg(MSP, 0x20001000)  returns 0x00 (0000ms, 0659ms total)
T232C 002:623 JLINK_WriteReg(PSP, 0x20001000)  returns 0x00 (0000ms, 0659ms total)
T232C 002:623 JLINK_WriteReg(CFBP, 0x00000000)  returns 0x00 (0000ms, 0659ms total)
T232C 002:623 JLINK_SetBPEx(Addr = 0x20000000, Type = 0xFFFFFFF2)  returns 0x0000000E (0000ms, 0659ms total)
T232C 002:623 JLINK_Go() (0002ms, 0661ms total)
T232C 002:625 JLINK_IsHalted()  returns FALSE (0000ms, 0661ms total)
T232C 002:676 JLINK_IsHalted() -- CPU_ReadMem(2 bytes @ 0x20000000)  returns TRUE (0003ms, 0664ms total)
T232C 002:679 JLINK_ReadReg(R15)  returns 0x20000000 (0000ms, 0661ms total)
T232C 002:679 JLINK_ClrBPEx(BPHandle = 0x0000000E)  returns 0x00 (0000ms, 0661ms total)
T232C 002:679 JLINK_ReadReg(R0)  returns 0x00000000 (0000ms, 0661ms total)
T232C 002:681 JLINK_WriteMem(0x20000180, 0x0400 Bytes, ...) -- Data:  09 68 19 B1 2B 49 09 68 00 29 39 D1 26 49 09 68 ... -- CPU_WriteMem(1024 bytes @ 0x20000180)  returns 0x400 (0008ms, 0669ms total)
T232C 002:689 JLINK_WriteReg(R0, 0x08000800)  returns 0x00 (0000ms, 0669ms total)
T232C 002:689 JLINK_WriteReg(R1, 0x00000400)  returns 0x00 (0000ms, 0669ms total)
T232C 002:689 JLINK_WriteReg(R2, 0x20000180)  returns 0x00 (0000ms, 0669ms total)
T232C 002:689 JLINK_WriteReg(R3, 0x00000000)  returns 0x00 (0000ms, 0669ms total)
T232C 002:689 JLINK_WriteReg(R4, 0x00000000)  returns 0x00 (0000ms, 0669ms total)
T232C 002:689 JLINK_WriteReg(R5, 0x00000000)  returns 0x00 (0000ms, 0669ms total)
T232C 002:689 JLINK_WriteReg(R6, 0x00000000)  returns 0x00 (0000ms, 0669ms total)
T232C 002:689 JLINK_WriteReg(R7, 0x00000000)  returns 0x00 (0001ms, 0670ms total)
T232C 002:690 JLINK_WriteReg(R8, 0x00000000)  returns 0x00 (0000ms, 0670ms total)
T232C 002:690 JLINK_WriteReg(R9, 0x2000017C)  returns 0x00 (0000ms, 0670ms total)
T232C 002:690 JLINK_WriteReg(R10, 0x00000000)  returns 0x00 (0000ms, 0670ms total)
T232C 002:690 JLINK_WriteReg(R11, 0x00000000)  returns 0x00 (0000ms, 0670ms total)
T232C 002:690 JLINK_WriteReg(R12, 0x00000000)  returns 0x00 (0000ms, 0670ms total)
T232C 002:690 JLINK_WriteReg(R13, 0x20001000)  returns 0x00 (0000ms, 0670ms total)
T232C 002:690 JLINK_WriteReg(R14, 0x20000001)  returns 0x00 (0000ms, 0670ms total)
T232C 002:690 JLINK_WriteReg(R15, 0x20000108)  returns 0x00 (0000ms, 0670ms total)
T232C 002:690 JLINK_WriteReg(XPSR, 0x01000000)  returns 0x00 (0000ms, 0670ms total)
T232C 002:690 JLINK_WriteReg(MSP, 0x20001000)  returns 0x00 (0001ms, 0671ms total)
T232C 002:691 JLINK_WriteReg(PSP, 0x20001000)  returns 0x00 (0000ms, 0671ms total)
T232C 002:691 JLINK_WriteReg(CFBP, 0x00000000)  returns 0x00 (0000ms, 0671ms total)
T232C 002:691 JLINK_SetBPEx(Addr = 0x20000000, Type = 0xFFFFFFF2)  returns 0x0000000F (0000ms, 0671ms total)
T232C 002:691 JLINK_Go() (0001ms, 0672ms total)
T232C 002:692 JLINK_IsHalted()  returns FALSE (0001ms, 0673ms total)
T232C 002:744 JLINK_IsHalted() -- CPU_ReadMem(2 bytes @ 0x20000000)  returns TRUE (0003ms, 0675ms total)
T232C 002:747 JLINK_ReadReg(R15)  returns 0x20000000 (0000ms, 0672ms total)
T232C 002:747 JLINK_ClrBPEx(BPHandle = 0x0000000F)  returns 0x00 (0000ms, 0672ms total)
T232C 002:747 JLINK_ReadReg(R0)  returns 0x00000000 (0000ms, 0672ms total)
T232C 002:751 JLINK_WriteMem(0x20000180, 0x0400 Bytes, ...) -- Data:  80 54 21 46 38 46 FF F7 7F FE F0 BD 10 B5 04 46 ... -- CPU_WriteMem(1024 bytes @ 0x20000180)  returns 0x400 (0008ms, 0681ms total)
T232C 002:759 JLINK_WriteReg(R0, 0x08000C00)  returns 0x00 (0000ms, 0681ms total)
T232C 002:759 JLINK_WriteReg(R1, 0x00000400)  returns 0x00 (0000ms, 0681ms total)
T232C 002:759 JLINK_WriteReg(R2, 0x20000180)  returns 0x00 (0000ms, 0681ms total)
T232C 002:759 JLINK_WriteReg(R3, 0x00000000)  returns 0x00 (0000ms, 0681ms total)
T232C 002:759 JLINK_WriteReg(R4, 0x00000000)  returns 0x00 (0000ms, 0681ms total)
T232C 002:759 JLINK_WriteReg(R5, 0x00000000)  returns 0x00 (0001ms, 0682ms total)
T232C 002:760 JLINK_WriteReg(R6, 0x00000000)  returns 0x00 (0000ms, 0682ms total)
T232C 002:760 JLINK_WriteReg(R7, 0x00000000)  returns 0x00 (0000ms, 0682ms total)
T232C 002:760 JLINK_WriteReg(R8, 0x00000000)  returns 0x00 (0000ms, 0682ms total)
T232C 002:760 JLINK_WriteReg(R9, 0x2000017C)  returns 0x00 (0000ms, 0682ms total)
T232C 002:760 JLINK_WriteReg(R10, 0x00000000)  returns 0x00 (0000ms, 0682ms total)
T232C 002:760 JLINK_WriteReg(R11, 0x00000000)  returns 0x00 (0000ms, 0682ms total)
T232C 002:760 JLINK_WriteReg(R12, 0x00000000)  returns 0x00 (0000ms, 0682ms total)
T232C 002:760 JLINK_WriteReg(R13, 0x20001000)  returns 0x00 (0000ms, 0682ms total)
T232C 002:760 JLINK_WriteReg(R14, 0x20000001)  returns 0x00 (0000ms, 0682ms total)
T232C 002:760 JLINK_WriteReg(R15, 0x20000108)  returns 0x00 (0000ms, 0682ms total)
T232C 002:760 JLINK_WriteReg(XPSR, 0x01000000)  returns 0x00 (0000ms, 0682ms total)
T232C 002:760 JLINK_WriteReg(MSP, 0x20001000)  returns 0x00 (0000ms, 0682ms total)
T232C 002:760 JLINK_WriteReg(PSP, 0x20001000)  returns 0x00 (0000ms, 0682ms total)
T232C 002:760 JLINK_WriteReg(CFBP, 0x00000000)  returns 0x00 (0000ms, 0682ms total)
T232C 002:760 JLINK_SetBPEx(Addr = 0x20000000, Type = 0xFFFFFFF2)  returns 0x00000010 (0000ms, 0682ms total)
T232C 002:760 JLINK_Go() (0002ms, 0684ms total)
T232C 002:762 JLINK_IsHalted()  returns FALSE (0000ms, 0684ms total)
T232C 002:813 JLINK_IsHalted() -- CPU_ReadMem(2 bytes @ 0x20000000)  returns TRUE (0003ms, 0687ms total)
T232C 002:816 JLINK_ReadReg(R15)  returns 0x20000000 (0000ms, 0684ms total)
T232C 002:816 JLINK_ClrBPEx(BPHandle = 0x00000010)  returns 0x00 (0000ms, 0684ms total)
T232C 002:816 JLINK_ReadReg(R0)  returns 0x00000000 (0000ms, 0684ms total)
T232C 002:818 JLINK_WriteMem(0x20000180, 0x0400 Bytes, ...) -- Data:  00 20 18 90 4F F4 80 40 19 90 00 20 1A 90 07 A8 ... -- CPU_WriteMem(1024 bytes @ 0x20000180)  returns 0x400 (0008ms, 0693ms total)
T232C 002:826 JLINK_WriteReg(R0, 0x08001000)  returns 0x00 (0000ms, 0693ms total)
T232C 002:826 JLINK_WriteReg(R1, 0x00000400)  returns 0x00 (0000ms, 0693ms total)
T232C 002:826 JLINK_WriteReg(R2, 0x20000180)  returns 0x00 (0000ms, 0693ms total)
T232C 002:826 JLINK_WriteReg(R3, 0x00000000)  returns 0x00 (0000ms, 0693ms total)
T232C 002:826 JLINK_WriteReg(R4, 0x00000000)  returns 0x00 (0000ms, 0693ms total)
T232C 002:826 JLINK_WriteReg(R5, 0x00000000)  returns 0x00 (0000ms, 0693ms total)
T232C 002:826 JLINK_WriteReg(R6, 0x00000000)  returns 0x00 (0001ms, 0694ms total)
T232C 002:827 JLINK_WriteReg(R7, 0x00000000)  returns 0x00 (0000ms, 0694ms total)
T232C 002:827 JLINK_WriteReg(R8, 0x00000000)  returns 0x00 (0000ms, 0694ms total)
T232C 002:827 JLINK_WriteReg(R9, 0x2000017C)  returns 0x00 (0000ms, 0694ms total)
T232C 002:827 JLINK_WriteReg(R10, 0x00000000)  returns 0x00 (0000ms, 0694ms total)
T232C 002:827 JLINK_WriteReg(R11, 0x00000000)  returns 0x00 (0000ms, 0694ms total)
T232C 002:827 JLINK_WriteReg(R12, 0x00000000)  returns 0x00 (0000ms, 0694ms total)
T232C 002:827 JLINK_WriteReg(R13, 0x20001000)  returns 0x00 (0000ms, 0694ms total)
T232C 002:827 JLINK_WriteReg(R14, 0x20000001)  returns 0x00 (0000ms, 0694ms total)
T232C 002:827 JLINK_WriteReg(R15, 0x20000108)  returns 0x00 (0000ms, 0694ms total)
T232C 002:827 JLINK_WriteReg(XPSR, 0x01000000)  returns 0x00 (0000ms, 0694ms total)
T232C 002:827 JLINK_WriteReg(MSP, 0x20001000)  returns 0x00 (0000ms, 0694ms total)
T232C 002:827 JLINK_WriteReg(PSP, 0x20001000)  returns 0x00 (0001ms, 0695ms total)
T232C 002:828 JLINK_WriteReg(CFBP, 0x00000000)  returns 0x00 (0000ms, 0695ms total)
T232C 002:828 JLINK_SetBPEx(Addr = 0x20000000, Type = 0xFFFFFFF2)  returns 0x00000011 (0000ms, 0695ms total)
T232C 002:828 JLINK_Go() (0001ms, 0696ms total)
T232C 002:829 JLINK_IsHalted()  returns FALSE (0001ms, 0697ms total)
